* T-Spice 13.00 Simulation	Fri Sep 06 19:27:02 2019	C:\Users\ARJUN\AppData\Local\Temp\TB_SRAM_6T_8BIT.sp
* Command line: tspice -o C:\Users\ARJUN\AppData\Local\Temp\TB_SRAM_6T_8BIT.out C:\Users\ARJUN\AppData\Local\Temp\TB_SRAM_6T_8BIT.sp 
* T-Spice Win32 13.00.20080321.01:01:33

*SEDIT: Alter blocks = 0

* Accuracy and Convergence options:
* numndset|dchold = 100
* 
* Timestep and Integration options:
*  relq|relchgtol = 0.0005
* 
* Model Evaluation options:
*            dcap = 2                    defnrb = 0 [sq]               defnrd = 0 [sq]
*          defnrs = 0 [sq]                 tnom = 25 [deg C]
* 
* General options:
*            temp = 25 [deg C]          threads = 4
* 
* Output options:
*           acout = 1                    ingold = 0
* 


*  Device and node counts:
*             MOSFETs - 64                MOSFET geometries - 4       
*                BJTs - 0                             JFETs - 0       
*             MESFETs - 0                            Diodes - 0       
*          Capacitors - 0                         Resistors - 0       
*           Inductors - 0                  Mutual inductors - 0       
*  Transmission lines - 0        Coupled transmission lines - 0       
*     Voltage sources - 10                  Current sources - 0       
*                VCVS - 0                              VCCS - 0       
*                CCVS - 0                              CCCS - 0       
*    V-control switch - 0                  I-control switch - 0       
*       Macro devices - 0        External C model instances - 0       
*         HDL devices - 0       
*         Subcircuits - 0              Subcircuit instances - 17      
*   Independent nodes - 280                  Boundary nodes - 11      
*         Total nodes - 291     


*SEDIT: Alter=0
*SEDIT: Analysis types DCOP 0 ACMODEL 0 AC 0 TRANSIENT 1 TRANSFER 0 NOISE 0 

*WEDIT: .tran   2e-006   3e-006
TRANSIENT ANALYSIS
Time<s>           v(WL)<V>   v(BL_1)<V>   v(BL_2)<V>    v(Q_1)<V>    v(Q_2)<V>   v(QB_1)<V>   v(QB_2)<V>
 0.000000e+000  0.0000e+000  0.0000e+000  0.0000e+000  2.1676e-001  2.1676e-001  2.1667e-001  2.1667e-001
 1.000000e-009  0.0000e+000  0.0000e+000  0.0000e+000  2.1676e-001  2.1676e-001  2.1667e-001  2.1667e-001
 1.100000e-008  0.0000e+000  0.0000e+000  0.0000e+000  2.1676e-001  2.1676e-001  2.1667e-001  2.1667e-001
 4.000000e-008  0.0000e+000  0.0000e+000  0.0000e+000  2.1676e-001  2.1676e-001  2.1667e-001  2.1667e-001
 4.100000e-008  4.0000e-001  0.0000e+000  0.0000e+000  3.7518e-002  3.7518e-002  3.3389e-001  3.3389e-001
 4.150000e-008  4.0000e-001  0.0000e+000  0.0000e+000  1.5074e-002  1.5074e-002  3.6207e-001  3.6207e-001
 4.350763e-008  4.0000e-001  0.0000e+000  0.0000e+000  6.5690e-003  6.5690e-003  3.8356e-001  3.8356e-001
 4.451145e-008  4.0000e-001  0.0000e+000  0.0000e+000  5.1913e-003  5.1913e-003  3.8854e-001  3.8854e-001
 4.740855e-008  4.0000e-001  0.0000e+000  0.0000e+000  5.3987e-003  5.3987e-003  3.8866e-001  3.8866e-001
 6.000000e-008  4.0000e-001  0.0000e+000  0.0000e+000  5.2157e-003  5.2157e-003  3.8855e-001  3.8855e-001
 6.100000e-008  4.0000e-001  0.0000e+000  4.0000e-001  5.2942e-003  3.6215e-002  3.8860e-001  3.7789e-001
 6.150000e-008  4.0000e-001  0.0000e+000  4.0000e-001  5.3027e-003  4.7035e-002  3.8860e-001  3.5406e-001
 6.175000e-008  4.0000e-001  0.0000e+000  4.0000e-001  5.3043e-003  5.3316e-002  3.8860e-001  3.4020e-001
 6.425000e-008  4.0000e-001  0.0000e+000  4.0000e-001  5.3058e-003  1.9540e-001  3.8861e-001  9.1506e-002
 6.550000e-008  4.0000e-001  0.0000e+000  4.0000e-001  5.3047e-003  3.4112e-001  3.8860e-001  2.2963e-002
 6.612499e-008  4.0000e-001  0.0000e+000  4.0000e-001  5.3053e-003  3.7828e-001  3.8860e-001  1.3943e-002
 6.807346e-008  4.0000e-001  0.0000e+000  4.0000e-001  5.3050e-003  3.9099e-001  3.8860e-001  6.0546e-003
 7.846197e-008  4.0000e-001  0.0000e+000  4.0000e-001  5.3053e-003  3.8676e-001  3.8860e-001  9.7605e-003
 8.000000e-008  4.0000e-001  0.0000e+000  4.0000e-001  5.3051e-003  3.8872e-001  3.8860e-001  7.2877e-003
 8.100000e-008  0.0000e+000  4.0000e-001  4.0000e-001  6.1771e-003  3.8722e-001  3.8738e-001  6.7372e-003
 8.150000e-008  0.0000e+000  4.0000e-001  4.0000e-001  8.6016e-003  3.8817e-001  3.8832e-001  8.8319e-003
 8.519668e-008  0.0000e+000  4.0000e-001  4.0000e-001  9.8733e-003  3.8826e-001  3.8828e-001  9.8929e-003
 1.200000e-007  0.0000e+000  4.0000e-001  4.0000e-001  1.0112e-002  3.8817e-001  3.8814e-001  1.0081e-002
 1.210000e-007  4.0000e-001  4.0000e-001  4.0000e-001  4.6649e-002  3.8967e-001  3.4711e-001  1.0724e-002
 1.215000e-007  4.0000e-001  4.0000e-001  4.0000e-001  6.1305e-002  3.8877e-001  3.2148e-001  8.9015e-003
 1.235092e-007  4.0000e-001  4.0000e-001  4.0000e-001  2.9914e-001  3.8861e-001  6.0369e-002  8.0954e-003
 1.245138e-007  4.0000e-001  4.0000e-001  4.0000e-001  3.7277e-001  3.8862e-001  1.5648e-002  7.9587e-003
 1.250161e-007  4.0000e-001  4.0000e-001  4.0000e-001  3.8281e-001  3.8865e-001  1.0628e-002  7.9885e-003
 1.263605e-007  4.0000e-001  4.0000e-001  4.0000e-001  3.8917e-001  3.8865e-001  7.5695e-003  7.9848e-003
 1.314422e-007  4.0000e-001  4.0000e-001  4.0000e-001  3.8834e-001  3.8865e-001  8.3125e-003  7.9868e-003
 1.339831e-007  4.0000e-001  4.0000e-001  4.0000e-001  3.8874e-001  3.8865e-001  7.7725e-003  7.9853e-003
 1.400000e-007  4.0000e-001  4.0000e-001  4.0000e-001  3.8861e-001  3.8865e-001  8.1735e-003  7.9864e-003
 1.410000e-007  4.0000e-001  4.0000e-001  0.0000e+000  3.8862e-001  2.3045e-001  8.0107e-003  5.8785e-002
 1.414999e-007  4.0000e-001  4.0000e-001  0.0000e+000  3.8863e-001  1.1809e-001  7.9953e-003  9.2729e-002
 1.417499e-007  4.0000e-001  4.0000e-001  0.0000e+000  3.8864e-001  7.9539e-002  7.9918e-003  1.1606e-001
 1.442499e-007  4.0000e-001  4.0000e-001  0.0000e+000  3.8866e-001 -1.2041e-003  7.9834e-003  3.7146e-001
 1.454999e-007  4.0000e-001  4.0000e-001  0.0000e+000  3.8865e-001  1.0361e-002  7.9863e-003  3.9353e-001
 1.461249e-007  4.0000e-001  4.0000e-001  0.0000e+000  3.8865e-001  3.1469e-003  7.9858e-003  3.8769e-001
 1.480735e-007  4.0000e-001  4.0000e-001  0.0000e+000  3.8865e-001  6.9123e-003  7.9860e-003  3.8948e-001
 1.584626e-007  4.0000e-001  4.0000e-001  0.0000e+000  3.8865e-001  3.7987e-003  7.9858e-003  3.8777e-001
 1.600000e-007  4.0000e-001  4.0000e-001  0.0000e+000  3.8865e-001  6.3494e-003  7.9860e-003  3.8925e-001
 1.610000e-007  0.0000e+000  0.0000e+000  0.0000e+000  3.8713e-001  6.4101e-003  6.9367e-003  3.8747e-001
 1.615000e-007  0.0000e+000  0.0000e+000  0.0000e+000  3.8810e-001  8.6798e-003  8.9215e-003  3.8833e-001
 1.651966e-007  0.0000e+000  0.0000e+000  0.0000e+000  3.8824e-001  9.8741e-003  9.9083e-003  3.8828e-001
 1.999999e-007  0.0000e+000  0.0000e+000  0.0000e+000  3.8817e-001  1.0099e-002  1.0078e-002  3.8815e-001
 2.014714e-007  4.0000e-001  0.0000e+000  0.0000e+000  8.8553e-002  6.7574e-003  1.1845e-001  3.8895e-001
 2.022072e-007  4.0000e-001  0.0000e+000  0.0000e+000  2.9808e-002  5.5584e-003  2.7111e-001  3.8853e-001
 2.025751e-007  4.0000e-001  0.0000e+000  0.0000e+000  1.3402e-002  5.2941e-003  3.3745e-001  3.8849e-001
 2.034335e-007  4.0000e-001  0.0000e+000  0.0000e+000  6.7274e-003  5.3221e-003  3.8568e-001  3.8861e-001
 2.051841e-007  4.0000e-001  0.0000e+000  0.0000e+000  4.6020e-003  5.2935e-003  3.8918e-001  3.8860e-001
 2.076571e-007  4.0000e-001  0.0000e+000  0.0000e+000  5.8043e-003  5.3143e-003  3.8848e-001  3.8861e-001
 2.088935e-007  4.0000e-001  0.0000e+000  0.0000e+000  5.0313e-003  5.2994e-003  3.8848e-001  3.8860e-001
 2.149582e-007  4.0000e-001  0.0000e+000  0.0000e+000  5.5539e-003  5.3104e-003  3.8873e-001  3.8861e-001
 2.179906e-007  4.0000e-001  0.0000e+000  0.0000e+000  5.1002e-003  5.3008e-003  3.8849e-001  3.8860e-001
 2.200000e-007  4.0000e-001  0.0000e+000  0.0000e+000  5.4594e-003  5.3085e-003  3.8870e-001  3.8861e-001
 2.210000e-007  4.0000e-001  0.0000e+000  4.0000e-001  5.3241e-003  3.6233e-002  3.8862e-001  3.7790e-001
 2.215000e-007  4.0000e-001  0.0000e+000  4.0000e-001  5.3093e-003  4.7041e-002  3.8861e-001  3.5406e-001
 2.217500e-007  4.0000e-001  0.0000e+000  4.0000e-001  5.3067e-003  5.3320e-002  3.8861e-001  3.4020e-001
 2.242500e-007  4.0000e-001  0.0000e+000  4.0000e-001  5.3040e-003  1.9539e-001  3.8860e-001  9.1506e-002
 2.255000e-007  4.0000e-001  0.0000e+000  4.0000e-001  5.3059e-003  3.4112e-001  3.8861e-001  2.2964e-002
 2.261250e-007  4.0000e-001  0.0000e+000  4.0000e-001  5.3049e-003  3.7828e-001  3.8860e-001  1.3943e-002
 2.280734e-007  4.0000e-001  0.0000e+000  4.0000e-001  5.3054e-003  3.9099e-001  3.8860e-001  6.0545e-003
 2.384616e-007  4.0000e-001  0.0000e+000  4.0000e-001  5.3050e-003  3.8676e-001  3.8860e-001  9.7606e-003
 2.400000e-007  4.0000e-001  0.0000e+000  4.0000e-001  5.3053e-003  3.8872e-001  3.8860e-001  7.2875e-003
 2.410000e-007  1.0603e-014  4.0000e-001  4.0000e-001  6.1771e-003  3.8722e-001  3.8738e-001  6.7371e-003
 2.415000e-007  0.0000e+000  4.0000e-001  4.0000e-001  8.6016e-003  3.8817e-001  3.8832e-001  8.8318e-003
 2.451966e-007  0.0000e+000  4.0000e-001  4.0000e-001  9.8733e-003  3.8826e-001  3.8828e-001  9.8929e-003
 2.800000e-007  1.0588e-014  4.0000e-001  4.0000e-001  1.0112e-002  3.8817e-001  3.8814e-001  1.0081e-002
 2.810000e-007  4.0000e-001  4.0000e-001  4.0000e-001  4.6649e-002  3.8967e-001  3.4711e-001  1.0724e-002
 2.815000e-007  4.0000e-001  4.0000e-001  4.0000e-001  6.1305e-002  3.8877e-001  3.2148e-001  8.9015e-003
 2.835092e-007  4.0000e-001  4.0000e-001  4.0000e-001  2.9914e-001  3.8861e-001  6.0369e-002  8.0954e-003
 2.845138e-007  4.0000e-001  4.0000e-001  4.0000e-001  3.7277e-001  3.8862e-001  1.5648e-002  7.9587e-003
 2.850161e-007  4.0000e-001  4.0000e-001  4.0000e-001  3.8281e-001  3.8865e-001  1.0628e-002  7.9885e-003
 2.863605e-007  4.0000e-001  4.0000e-001  4.0000e-001  3.8917e-001  3.8865e-001  7.5695e-003  7.9848e-003
 2.914422e-007  4.0000e-001  4.0000e-001  4.0000e-001  3.8834e-001  3.8865e-001  8.3125e-003  7.9868e-003
 2.939831e-007  4.0000e-001  4.0000e-001  4.0000e-001  3.8874e-001  3.8865e-001  7.7725e-003  7.9853e-003
 3.000000e-007  4.0000e-001  4.0000e-001  4.0000e-001  3.8861e-001  3.8865e-001  8.1735e-003  7.9864e-003
 3.002881e-007  4.0000e-001  4.0000e-001  2.8475e-001  3.8859e-001  3.8822e-001  8.0418e-003  6.5273e-003
 3.010000e-007  4.0000e-001  4.0000e-001  0.0000e+000  3.8862e-001  2.9580e-001  8.0011e-003  4.3666e-002
 3.013559e-007  4.0000e-001  4.0000e-001  0.0000e+000  3.8863e-001  2.1653e-001  7.9940e-003  6.5349e-002
 3.015339e-007  4.0000e-001  4.0000e-001  0.0000e+000  3.8864e-001  1.7468e-001  7.9918e-003  7.5830e-002
 3.033135e-007  4.0000e-001  4.0000e-001  0.0000e+000  3.8865e-001  1.3767e-002  7.9843e-003  3.1243e-001
 3.042034e-007  4.0000e-001  4.0000e-001  0.0000e+000  3.8865e-001  7.8474e-003  7.9859e-003  3.8568e-001
 3.046483e-007  4.0000e-001  4.0000e-001  0.0000e+000  3.8865e-001  5.2156e-003  7.9858e-003  3.8685e-001
 3.058331e-007  4.0000e-001  4.0000e-001  0.0000e+000  3.8865e-001  5.5216e-003  7.9859e-003  3.8889e-001
 3.076869e-007  4.0000e-001  4.0000e-001  0.0000e+000  3.8865e-001  5.1333e-003  7.9859e-003  3.8845e-001
 3.086138e-007  4.0000e-001  4.0000e-001  0.0000e+000  3.8865e-001  5.4024e-003  7.9859e-003  3.8867e-001
 3.151074e-007  4.0000e-001  4.0000e-001  0.0000e+000  3.8865e-001  5.2160e-003  7.9859e-003  3.8855e-001
 3.200000e-007  4.0000e-001  4.0000e-001  0.0000e+000  3.8865e-001  5.3845e-003  7.9859e-003  3.8866e-001
 3.600000e-007  0.0000e+000  0.0000e+000  0.0000e+000  3.8818e-001  9.8638e-003  9.8967e-003  3.8820e-001
 3.614560e-007  4.0000e-001  0.0000e+000  0.0000e+000  9.1434e-002  6.7480e-003  1.1491e-001  3.8899e-001
 3.621840e-007  4.0000e-001  0.0000e+000  0.0000e+000  3.1090e-002  5.5572e-003  2.6456e-001  3.8855e-001
 3.625480e-007  4.0000e-001  0.0000e+000  0.0000e+000  1.3897e-002  5.2938e-003  3.3315e-001  3.8850e-001
 3.633832e-007  4.0000e-001  0.0000e+000  0.0000e+000  6.9468e-003  5.3215e-003  3.8483e-001  3.8861e-001
 3.651209e-007  4.0000e-001  0.0000e+000  0.0000e+000  4.5357e-003  5.2940e-003  3.8938e-001  3.8860e-001
 3.676019e-007  4.0000e-001  0.0000e+000  0.0000e+000  5.8433e-003  5.3139e-003  3.8840e-001  3.8861e-001
 3.688424e-007  4.0000e-001  0.0000e+000  0.0000e+000  5.0166e-003  5.2997e-003  3.8848e-001  3.8860e-001
 3.751736e-007  4.0000e-001  0.0000e+000  0.0000e+000  5.5681e-003  5.3102e-003  3.8873e-001  3.8861e-001
 3.783392e-007  4.0000e-001  0.0000e+000  0.0000e+000  5.0872e-003  5.3009e-003  3.8849e-001  3.8860e-001
 3.800000e-007  4.0000e-001  0.0000e+000  0.0000e+000  5.4592e-003  5.3082e-003  3.8870e-001  3.8861e-001
 3.810000e-007  4.0000e-001  0.0000e+000  4.0000e-001  5.3241e-003  3.6233e-002  3.8862e-001  3.7790e-001
 3.815000e-007  4.0000e-001  0.0000e+000  4.0000e-001  5.3093e-003  4.7041e-002  3.8861e-001  3.5406e-001
 3.817500e-007  4.0000e-001  0.0000e+000  4.0000e-001  5.3067e-003  5.3320e-002  3.8861e-001  3.4020e-001
 3.842500e-007  4.0000e-001  0.0000e+000  4.0000e-001  5.3040e-003  1.9539e-001  3.8860e-001  9.1506e-002
 3.855000e-007  4.0000e-001  0.0000e+000  4.0000e-001  5.3059e-003  3.4112e-001  3.8861e-001  2.2964e-002
 3.861250e-007  4.0000e-001  0.0000e+000  4.0000e-001  5.3049e-003  3.7828e-001  3.8860e-001  1.3943e-002
 3.880734e-007  4.0000e-001  0.0000e+000  4.0000e-001  5.3054e-003  3.9099e-001  3.8860e-001  6.0545e-003
 3.984616e-007  4.0000e-001  0.0000e+000  4.0000e-001  5.3050e-003  3.8676e-001  3.8860e-001  9.7606e-003
 4.000000e-007  4.0000e-001  0.0000e+000  4.0000e-001  5.3053e-003  3.8872e-001  3.8860e-001  7.2875e-003
 4.010000e-007  0.0000e+000  4.0000e-001  4.0000e-001  6.1771e-003  3.8722e-001  3.8738e-001  6.7371e-003
 4.015000e-007  0.0000e+000  4.0000e-001  4.0000e-001  8.6016e-003  3.8817e-001  3.8832e-001  8.8318e-003
 4.051966e-007  0.0000e+000  4.0000e-001  4.0000e-001  9.8733e-003  3.8826e-001  3.8828e-001  9.8929e-003
 4.400000e-007  0.0000e+000  4.0000e-001  4.0000e-001  1.0112e-002  3.8817e-001  3.8814e-001  1.0081e-002
 4.410000e-007  4.0000e-001  4.0000e-001  4.0000e-001  4.6649e-002  3.8967e-001  3.4711e-001  1.0724e-002
 4.415000e-007  4.0000e-001  4.0000e-001  4.0000e-001  6.1305e-002  3.8877e-001  3.2148e-001  8.9015e-003
 4.435092e-007  4.0000e-001  4.0000e-001  4.0000e-001  2.9914e-001  3.8861e-001  6.0369e-002  8.0954e-003
 4.445138e-007  4.0000e-001  4.0000e-001  4.0000e-001  3.7277e-001  3.8862e-001  1.5648e-002  7.9587e-003
 4.450161e-007  4.0000e-001  4.0000e-001  4.0000e-001  3.8281e-001  3.8865e-001  1.0628e-002  7.9885e-003
 4.463605e-007  4.0000e-001  4.0000e-001  4.0000e-001  3.8917e-001  3.8865e-001  7.5695e-003  7.9848e-003
 4.514422e-007  4.0000e-001  4.0000e-001  4.0000e-001  3.8834e-001  3.8865e-001  8.3125e-003  7.9868e-003
 4.539831e-007  4.0000e-001  4.0000e-001  4.0000e-001  3.8874e-001  3.8865e-001  7.7725e-003  7.9853e-003
 4.600000e-007  4.0000e-001  4.0000e-001  4.0000e-001  3.8861e-001  3.8865e-001  8.1735e-003  7.9864e-003
 4.610000e-007  4.0000e-001  4.0000e-001  0.0000e+000  3.8862e-001  2.3045e-001  8.0107e-003  5.8785e-002
 4.615000e-007  4.0000e-001  4.0000e-001  0.0000e+000  3.8863e-001  1.1809e-001  7.9953e-003  9.2729e-002
 4.617499e-007  4.0000e-001  4.0000e-001  0.0000e+000  3.8864e-001  7.9539e-002  7.9918e-003  1.1606e-001
 4.642499e-007  4.0000e-001  4.0000e-001  0.0000e+000  3.8866e-001 -1.2041e-003  7.9834e-003  3.7146e-001
 4.654999e-007  4.0000e-001  4.0000e-001  0.0000e+000  3.8865e-001  1.0361e-002  7.9863e-003  3.9353e-001
 4.661249e-007  4.0000e-001  4.0000e-001  0.0000e+000  3.8865e-001  3.1469e-003  7.9858e-003  3.8769e-001
 4.680735e-007  4.0000e-001  4.0000e-001  0.0000e+000  3.8865e-001  6.9123e-003  7.9860e-003  3.8948e-001
 4.784626e-007  4.0000e-001  4.0000e-001  0.0000e+000  3.8865e-001  3.7987e-003  7.9858e-003  3.8777e-001
 4.799999e-007  4.0000e-001  4.0000e-001  0.0000e+000  3.8865e-001  6.3494e-003  7.9860e-003  3.8925e-001
 4.953736e-007  0.0000e+000  0.0000e+000  0.0000e+000  3.8814e-001  9.6860e-003  9.7419e-003  3.8819e-001
 5.030604e-007  0.0000e+000  0.0000e+000  0.0000e+000  3.8821e-001  9.9762e-003  9.9855e-003  3.8822e-001
 5.200000e-007  7.9409e-015  0.0000e+000  0.0000e+000  3.8820e-001  1.0001e-002  1.0004e-002  3.8821e-001
 5.209999e-007  4.0000e-001  0.0000e+000  0.0000e+000  2.2181e-001  7.3394e-003  6.5200e-002  3.8918e-001
 5.215000e-007  4.0000e-001  0.0000e+000  0.0000e+000  1.0981e-001  5.7781e-003  9.9638e-002  3.8855e-001
 5.235077e-007  4.0000e-001  0.0000e+000  0.0000e+000  1.5415e-002  5.3441e-003  3.4462e-001  3.8856e-001
 5.245116e-007  4.0000e-001  0.0000e+000  0.0000e+000  5.1358e-003  5.2902e-003  3.8793e-001  3.8860e-001
 5.250135e-007  4.0000e-001  0.0000e+000  0.0000e+000  5.4167e-003  5.3095e-003  3.8849e-001  3.8861e-001
 5.263495e-007  4.0000e-001  0.0000e+000  0.0000e+000  5.2492e-003  5.3023e-003  3.8860e-001  3.8860e-001
 5.313682e-007  4.0000e-001  0.0000e+000  0.0000e+000  5.3542e-003  5.3077e-003  3.8862e-001  3.8861e-001
 5.338776e-007  4.0000e-001  0.0000e+000  0.0000e+000  5.2670e-003  5.3031e-003  3.8859e-001  3.8860e-001
 5.400000e-007  4.0000e-001  0.0000e+000  0.0000e+000  5.3397e-003  5.3070e-003  3.8862e-001  3.8861e-001
 5.410000e-007  4.0000e-001  0.0000e+000  4.0000e-001  5.3096e-003  3.6232e-002  3.8861e-001  3.7790e-001
 5.415000e-007  4.0000e-001  0.0000e+000  4.0000e-001  5.3062e-003  4.7041e-002  3.8860e-001  3.5406e-001
 5.417500e-007  4.0000e-001  0.0000e+000  4.0000e-001  5.3056e-003  5.3320e-002  3.8860e-001  3.4020e-001
 5.442500e-007  4.0000e-001  0.0000e+000  4.0000e-001  5.3049e-003  1.9539e-001  3.8860e-001  9.1506e-002
 5.455000e-007  4.0000e-001  0.0000e+000  4.0000e-001  5.3053e-003  3.4112e-001  3.8860e-001  2.2964e-002
 5.461250e-007  4.0000e-001  0.0000e+000  4.0000e-001  5.3051e-003  3.7828e-001  3.8860e-001  1.3943e-002
 5.480735e-007  4.0000e-001  0.0000e+000  4.0000e-001  5.3052e-003  3.9099e-001  3.8860e-001  6.0544e-003
 5.584626e-007  4.0000e-001  0.0000e+000  4.0000e-001  5.3051e-003  3.8676e-001  3.8860e-001  9.7607e-003
 5.599999e-007  4.0000e-001  0.0000e+000  4.0000e-001  5.3052e-003  3.8872e-001  3.8860e-001  7.2879e-003
 5.753736e-007  0.0000e+000  4.0000e-001  4.0000e-001  9.6701e-003  3.8816e-001  3.8818e-001  9.7179e-003
 5.830604e-007  0.0000e+000  4.0000e-001  4.0000e-001  9.9812e-003  3.8822e-001  3.8821e-001  9.9785e-003
 6.000000e-007  0.0000e+000  4.0000e-001  4.0000e-001  1.0008e-002  3.8821e-001  3.8820e-001  9.9992e-003
 6.014841e-007  4.0000e-001  4.0000e-001  4.0000e-001  5.5270e-002  3.8935e-001  3.3288e-001  9.9460e-003
 6.022261e-007  4.0000e-001  4.0000e-001  4.0000e-001  7.7517e-002  3.8868e-001  2.8799e-001  8.4857e-003
 6.025972e-007  4.0000e-001  4.0000e-001  4.0000e-001  8.9339e-002  3.8854e-001  2.6068e-001  8.0704e-003
 6.034737e-007  4.0000e-001  4.0000e-001  4.0000e-001  1.1847e-001  3.8863e-001  1.7140e-001  7.9793e-003
 6.052369e-007  4.0000e-001  4.0000e-001  4.0000e-001  3.0201e-001  3.8866e-001  4.1223e-002  7.9924e-003
 6.077105e-007  4.0000e-001  4.0000e-001  4.0000e-001  4.0219e-001  3.8865e-001  6.2295e-003  7.9805e-003
 6.089472e-007  4.0000e-001  4.0000e-001  4.0000e-001  3.8647e-001  3.8865e-001  7.0295e-003  7.9893e-003
 6.148757e-007  4.0000e-001  4.0000e-001  4.0000e-001  3.9035e-001  3.8865e-001  8.8761e-003  7.9828e-003
 6.178400e-007  4.0000e-001  4.0000e-001  4.0000e-001  3.8759e-001  3.8865e-001  7.2183e-003  7.9884e-003
 6.200000e-007  4.0000e-001  4.0000e-001  4.0000e-001  3.8925e-001  3.8865e-001  8.5564e-003  7.9839e-003
 6.209999e-007  4.0000e-001  4.0000e-001  2.1205e-014  3.8878e-001  2.3045e-001  8.0711e-003  5.8784e-002
 6.215000e-007  4.0000e-001  4.0000e-001  0.0000e+000  3.8870e-001  1.1809e-001  8.0073e-003  9.2728e-002
 6.217500e-007  4.0000e-001  4.0000e-001  0.0000e+000  3.8868e-001  7.9540e-002  7.9938e-003  1.1606e-001
 6.242500e-007  4.0000e-001  4.0000e-001  0.0000e+000  3.8864e-001 -1.2040e-003  7.9785e-003  3.7146e-001
