* T-Spice 13.00 Simulation	Fri Sep 06 19:19:03 2019	C:\Users\ARJUN\AppData\Local\Temp\TB_SRAM_7T_8BIT.sp
* Command line: tspice -o C:\Users\ARJUN\AppData\Local\Temp\TB_SRAM_7T_8BIT.out C:\Users\ARJUN\AppData\Local\Temp\TB_SRAM_7T_8BIT.sp 
* T-Spice Win32 13.00.20080321.01:01:33

*SEDIT: Alter blocks = 0

* Accuracy and Convergence options:
* numndset|dchold = 100
* 
* Timestep and Integration options:
*  relq|relchgtol = 0.0005
* 
* Model Evaluation options:
*            dcap = 2                    defnrb = 0 [sq]               defnrd = 0 [sq]
*          defnrs = 0 [sq]                 tnom = 25 [deg C]
* 
* General options:
*            temp = 25 [deg C]          threads = 4
* 
* Output options:
*           acout = 1                    ingold = 0
* 


*  Device and node counts:
*             MOSFETs - 96                MOSFET geometries - 4       
*                BJTs - 0                             JFETs - 0       
*             MESFETs - 0                            Diodes - 0       
*          Capacitors - 0                         Resistors - 0       
*           Inductors - 0                  Mutual inductors - 0       
*  Transmission lines - 0        Coupled transmission lines - 0       
*     Voltage sources - 10                  Current sources - 0       
*                VCVS - 0                              VCCS - 0       
*                CCVS - 0                              CCCS - 0       
*    V-control switch - 0                  I-control switch - 0       
*       Macro devices - 0        External C model instances - 0       
*         HDL devices - 0       
*         Subcircuits - 0              Subcircuit instances - 25      
*   Independent nodes - 425                  Boundary nodes - 11      
*         Total nodes - 436     


*SEDIT: Alter=0
*SEDIT: Analysis types DCOP 0 ACMODEL 0 AC 0 TRANSIENT 1 TRANSFER 0 NOISE 0 

*WEDIT: .tran   2e-009   3e-006
TRANSIENT ANALYSIS
Time<s>          v(Q_1)<V>   v(BL_1)<V>   v(BL_2)<V>     v(WL)<V>    v(Q_2)<V>   v(QB_2)<V>   v(QB_1)<V>
 0.000000e+000  1.7606e-001  0.0000e+000  0.0000e+000  0.0000e+000  1.7606e-001  1.7556e-001  1.7556e-001
 1.250000e-010  1.7606e-001  0.0000e+000  0.0000e+000  0.0000e+000  1.7606e-001  1.7556e-001  1.7556e-001
 1.000000e-009  1.7606e-001  0.0000e+000  0.0000e+000  0.0000e+000  1.7606e-001  1.7556e-001  1.7556e-001
 1.500000e-009  1.7606e-001  0.0000e+000  0.0000e+000  0.0000e+000  1.7606e-001  1.7556e-001  1.7556e-001
 5.500000e-009  1.7606e-001  0.0000e+000  0.0000e+000  0.0000e+000  1.7606e-001  1.7556e-001  1.7556e-001
 9.500000e-009  1.7606e-001  0.0000e+000  0.0000e+000  0.0000e+000  1.7606e-001  1.7556e-001  1.7556e-001
 1.350000e-008  1.7606e-001  0.0000e+000  0.0000e+000  0.0000e+000  1.7606e-001  1.7556e-001  1.7556e-001
 1.750000e-008  1.7606e-001  0.0000e+000  0.0000e+000  0.0000e+000  1.7606e-001  1.7556e-001  1.7556e-001
 2.150000e-008  1.7606e-001  0.0000e+000  0.0000e+000  0.0000e+000  1.7606e-001  1.7556e-001  1.7556e-001
 2.550000e-008  1.7606e-001  0.0000e+000  0.0000e+000  0.0000e+000  1.7606e-001  1.7556e-001  1.7556e-001
 2.950000e-008  1.7606e-001  0.0000e+000  0.0000e+000  0.0000e+000  1.7606e-001  1.7556e-001  1.7556e-001
 3.350000e-008  1.7606e-001  0.0000e+000  0.0000e+000  0.0000e+000  1.7606e-001  1.7556e-001  1.7556e-001
 3.750000e-008  1.7606e-001  0.0000e+000  0.0000e+000  0.0000e+000  1.7606e-001  1.7556e-001  1.7556e-001
 4.000000e-008  1.7606e-001  0.0000e+000  0.0000e+000  0.0000e+000  1.7606e-001  1.7556e-001  1.7556e-001
 4.050000e-008  1.7668e-001  0.0000e+000  0.0000e+000  2.0000e-001  1.7668e-001  1.7873e-001  1.7873e-001
 4.100000e-008  5.5282e-002  0.0000e+000  0.0000e+000  4.0000e-001  5.5282e-002  1.8407e-001  1.8407e-001
 4.125000e-008  2.3744e-002  0.0000e+000  0.0000e+000  4.0000e-001  2.3744e-002  1.8853e-001  1.8853e-001
 4.137500e-008  1.4518e-002  0.0000e+000  0.0000e+000  4.0000e-001  1.4518e-002  1.9147e-001  1.9147e-001
 4.262500e-008 -4.4239e-003  0.0000e+000  0.0000e+000  4.0000e-001 -4.4239e-003  2.1305e-001  2.1305e-001
 4.325000e-008  4.0413e-003  0.0000e+000  0.0000e+000  4.0000e-001  4.0413e-003  2.1666e-001  2.1666e-001
 4.571480e-008  6.1462e-004  0.0000e+000  0.0000e+000  4.0000e-001  6.1462e-004  2.2075e-001  2.2075e-001
 4.971480e-008  3.3462e-003  0.0000e+000  0.0000e+000  4.0000e-001  3.3462e-003  2.2491e-001  2.2491e-001
 5.371480e-008  1.1426e-003  0.0000e+000  0.0000e+000  4.0000e-001  1.1426e-003  2.2676e-001  2.2676e-001
 5.771480e-008  3.0167e-003  0.0000e+000  0.0000e+000  4.0000e-001  3.0167e-003  2.2790e-001  2.2790e-001
 6.000000e-008  1.5751e-003  0.0000e+000  0.0000e+000  4.0000e-001  1.5751e-003  2.2790e-001  2.2790e-001
 6.050000e-008  2.0166e-003  0.0000e+000  2.0000e-001  4.0000e-001  5.1310e-002  2.3264e-001  2.2798e-001
 6.100000e-008  2.1375e-003  0.0000e+000  4.0000e-001  4.0000e-001  8.0612e-002  2.2804e-001  2.2800e-001
 6.125000e-008  2.1638e-003  0.0000e+000  4.0000e-001  4.0000e-001  9.1316e-002  2.0452e-001  2.2801e-001
 6.137499e-008  2.1719e-003  0.0000e+000  4.0000e-001  4.0000e-001  9.5821e-002  1.8699e-001  2.2801e-001
 6.247109e-008  2.1926e-003  0.0000e+000  4.0000e-001  4.0000e-001  1.2744e-001  4.2184e-002  2.2803e-001
 6.301913e-008  2.1871e-003  0.0000e+000  4.0000e-001  4.0000e-001  1.4162e-001  1.3691e-002  2.2804e-001
 6.496181e-008  2.1883e-003  0.0000e+000  4.0000e-001  4.0000e-001  1.8080e-001  3.2698e-003  2.2816e-001
 6.593315e-008  2.1856e-003  0.0000e+000  4.0000e-001  4.0000e-001  1.9022e-001  4.6846e-003  2.2825e-001
 6.993315e-008  2.1855e-003  0.0000e+000  4.0000e-001  4.0000e-001  2.1091e-001  6.4968e-003  2.2847e-001
 7.393315e-008  2.1901e-003  0.0000e+000  4.0000e-001  4.0000e-001  2.1955e-001  5.2701e-003  2.2840e-001
 7.793315e-008  2.1948e-003  0.0000e+000  4.0000e-001  4.0000e-001  2.2456e-001  6.8046e-003  2.2813e-001
 8.000000e-008  2.1956e-003  0.0000e+000  4.0000e-001  4.0000e-001  2.2559e-001  5.5602e-003  2.2795e-001
 8.050000e-008 -7.6430e-003  2.0000e-001  4.0000e-001  2.0000e-001  2.2127e-001 -6.3577e-003  2.2364e-001
 8.075000e-008 -6.7912e-003  3.0000e-001  4.0000e-001  1.0000e-001  2.2007e-001 -5.8297e-003  2.2238e-001
 8.100000e-008 -5.8964e-003  4.0000e-001  4.0000e-001  0.0000e+000  2.1887e-001 -5.1699e-003  2.2112e-001
 8.147516e-008 -2.2219e-003  4.0000e-001  4.0000e-001  0.0000e+000  2.1934e-001 -1.7231e-003  2.2147e-001
 8.171274e-008 -5.1166e-004  4.0000e-001  4.0000e-001  0.0000e+000  2.1951e-001 -1.1149e-004  2.2158e-001
 8.351780e-008  9.6952e-003  4.0000e-001  4.0000e-001  0.0000e+000  2.2009e-001  9.6162e-003  2.2174e-001
 8.442033e-008  1.2988e-002  4.0000e-001  4.0000e-001  0.0000e+000  2.2011e-001  1.2832e-002  2.2158e-001
 8.769203e-008  2.0631e-002  4.0000e-001  4.0000e-001  0.0000e+000  2.2051e-001  2.0394e-002  2.2149e-001
 8.932787e-008  2.2692e-002  4.0000e-001  4.0000e-001  0.0000e+000  2.2081e-001  2.2472e-002  2.2158e-001
 9.332787e-008  2.5845e-002  4.0000e-001  4.0000e-001  0.0000e+000  2.2146e-001  2.5664e-002  2.2189e-001
 9.732787e-008  2.7417e-002  4.0000e-001  4.0000e-001  0.0000e+000  2.2195e-001  2.7254e-002  2.2216e-001
 1.013278e-007  2.8259e-002  4.0000e-001  4.0000e-001  0.0000e+000  2.2229e-001  2.8096e-002  2.2235e-001
 1.053278e-007  2.8726e-002  4.0000e-001  4.0000e-001  0.0000e+000  2.2250e-001  2.8556e-002  2.2248e-001
 1.093278e-007  2.8988e-002  4.0000e-001  4.0000e-001  0.0000e+000  2.2264e-001  2.8810e-002  2.2256e-001
 1.133278e-007  2.9133e-002  4.0000e-001  4.0000e-001  0.0000e+000  2.2272e-001  2.8948e-002  2.2262e-001
 1.173278e-007  2.9212e-002  4.0000e-001  4.0000e-001  0.0000e+000  2.2278e-001  2.9020e-002  2.2266e-001
 1.200000e-007  2.9241e-002  4.0000e-001  4.0000e-001  0.0000e+000  2.2281e-001  2.9046e-002  2.2268e-001
 1.205000e-007  3.3031e-002  4.0000e-001  4.0000e-001  2.0000e-001  2.2573e-001  3.0488e-002  2.2367e-001
 1.210000e-007  7.3284e-002  4.0000e-001  4.0000e-001  4.0000e-001  2.2804e-001  2.1725e-002  1.3796e-001
 1.212500e-007  8.5640e-002  4.0000e-001  4.0000e-001  4.0000e-001  2.2758e-001  1.5977e-002  9.5802e-002
 1.213750e-007  9.1258e-002  4.0000e-001  4.0000e-001  4.0000e-001  2.2743e-001  1.3800e-002  7.7490e-002
 1.226249e-007  1.3921e-001  4.0000e-001  4.0000e-001  4.0000e-001  2.2721e-001  5.1272e-003  5.1956e-003
 1.232499e-007  1.5532e-001  4.0000e-001  4.0000e-001  4.0000e-001  2.2757e-001  6.0883e-003  5.8626e-003
 1.256579e-007  1.8908e-001  4.0000e-001  4.0000e-001  4.0000e-001  2.2809e-001  6.3389e-003  4.9357e-003
 1.268619e-007  1.9682e-001  4.0000e-001  4.0000e-001  4.0000e-001  2.2831e-001  6.2466e-003  5.8384e-003
 1.308619e-007  2.1292e-001  4.0000e-001  4.0000e-001  4.0000e-001  2.2887e-001  6.2392e-003  5.4723e-003
 1.348619e-007  2.2094e-001  4.0000e-001  4.0000e-001  4.0000e-001  2.2901e-001  6.2589e-003  6.3047e-003
 1.388619e-007  2.2483e-001  4.0000e-001  4.0000e-001  4.0000e-001  2.2887e-001  6.2604e-003  5.8562e-003
 1.400000e-007  2.2552e-001  4.0000e-001  4.0000e-001  4.0000e-001  2.2881e-001  6.2766e-003  6.3869e-003
 1.405000e-007  2.2572e-001  4.0000e-001  2.0000e-001  4.0000e-001  2.2722e-001  4.1542e-003  6.1862e-003
 1.410000e-007  2.2592e-001  4.0000e-001  0.0000e+000  4.0000e-001  7.8489e-002  4.7018e-002  6.1787e-003
 1.412500e-007  2.2602e-001  4.0000e-001  0.0000e+000  4.0000e-001  3.3890e-002  6.6924e-002  6.1828e-003
 1.413749e-007  2.2607e-001  4.0000e-001  0.0000e+000  4.0000e-001  2.0661e-002  7.6047e-002  6.1854e-003
 1.424735e-007  2.2648e-001  4.0000e-001  0.0000e+000  4.0000e-001 -5.8236e-003  1.3649e-001  6.2046e-003
 1.430228e-007  2.2667e-001  4.0000e-001  0.0000e+000  4.0000e-001  3.4954e-003  1.5086e-001  6.2107e-003
 1.450219e-007  2.2732e-001  4.0000e-001  0.0000e+000  4.0000e-001  2.7318e-004  1.7985e-001  6.2223e-003
 1.460214e-007  2.2761e-001  4.0000e-001  0.0000e+000  4.0000e-001  2.2629e-003  1.8830e-001  6.2246e-003
 1.500214e-007  2.2838e-001  4.0000e-001  0.0000e+000  4.0000e-001  1.3448e-003  2.0831e-001  6.2366e-003
 1.540214e-007  2.2864e-001  4.0000e-001  0.0000e+000  4.0000e-001  2.4252e-003  2.1788e-001  6.2534e-003
 1.580214e-007  2.2859e-001  4.0000e-001  0.0000e+000  4.0000e-001  1.7487e-003  2.2264e-001  6.2664e-003
 1.600000e-007  2.2851e-001  4.0000e-001  0.0000e+000  4.0000e-001  2.3648e-003  2.2398e-001  6.2703e-003
 1.605000e-007  2.2333e-001  2.0000e-001  0.0000e+000  2.0000e-001 -9.5349e-003  2.1960e-001 -9.7338e-003
 1.607500e-007  2.2207e-001  1.0000e-001  0.0000e+000  1.0000e-001 -8.7805e-003  2.1842e-001 -9.0278e-003
 1.610000e-007  2.2083e-001  0.0000e+000  0.0000e+000  0.0000e+000 -7.9067e-003  2.1724e-001 -8.0313e-003
 1.614751e-007  2.2120e-001  0.0000e+000  0.0000e+000  0.0000e+000 -4.1546e-003  2.1776e-001 -4.0456e-003
 1.617127e-007  2.2132e-001  0.0000e+000  0.0000e+000  0.0000e+000 -2.4030e-003  2.1795e-001 -2.1944e-003
 1.635177e-007  2.2145e-001  0.0000e+000  0.0000e+000  0.0000e+000  8.1691e-003  2.1870e-001  8.8235e-003
 1.644202e-007  2.2126e-001  0.0000e+000  0.0000e+000  0.0000e+000  1.1650e-002  2.1879e-001  1.2331e-002
 1.676919e-007  2.2111e-001  0.0000e+000  0.0000e+000  0.0000e+000  1.9844e-002  2.1945e-001  2.0428e-002
 1.693277e-007  2.2121e-001  0.0000e+000  0.0000e+000  0.0000e+000  2.2100e-002  2.1986e-001  2.2593e-002
 1.733277e-007  2.2154e-001  0.0000e+000  0.0000e+000  0.0000e+000  2.5564e-002  2.2076e-001  2.5892e-002
 1.773277e-007  2.2187e-001  0.0000e+000  0.0000e+000  0.0000e+000  2.7278e-002  2.2145e-001  2.7518e-002
 1.813277e-007  2.2212e-001  0.0000e+000  0.0000e+000  0.0000e+000  2.8170e-002  2.2192e-001  2.8373e-002
 1.853277e-007  2.2230e-001  0.0000e+000  0.0000e+000  0.0000e+000  2.8643e-002  2.2224e-001  2.8835e-002
 1.893277e-007  2.2242e-001  0.0000e+000  0.0000e+000  0.0000e+000  2.8891e-002  2.2245e-001  2.9083e-002
 1.933277e-007  2.2251e-001  0.0000e+000  0.0000e+000  0.0000e+000  2.9017e-002  2.2259e-001  2.9213e-002
 1.973277e-007  2.2257e-001  0.0000e+000  0.0000e+000  0.0000e+000  2.9075e-002  2.2269e-001  2.9276e-002
 1.999999e-007  2.2261e-001  0.0000e+000  0.0000e+000  0.0000e+000  2.9093e-002  2.2274e-001  2.9297e-002
 2.005000e-007  2.2342e-001  0.0000e+000  0.0000e+000  2.0000e-001  3.0357e-002  2.2565e-001  3.3073e-002
 2.010000e-007  7.6575e-002  0.0000e+000  0.0000e+000  4.0000e-001  1.2337e-002  2.2705e-001  7.1882e-002
 2.012500e-007  3.2725e-002  0.0000e+000  0.0000e+000  4.0000e-001  6.3767e-003  2.2654e-001  8.5336e-002
 2.013750e-007  1.9859e-002  0.0000e+000  0.0000e+000  4.0000e-001  4.6655e-003  2.2642e-001  9.1965e-002
 2.026250e-007 -6.4491e-003  0.0000e+000  0.0000e+000  4.0000e-001  8.8320e-004  2.2657e-001  1.4528e-001
 2.032500e-007  4.1910e-003  0.0000e+000  0.0000e+000  4.0000e-001  2.5397e-003  2.2688e-001  1.5951e-001
 2.056591e-007 -2.3852e-004  0.0000e+000  0.0000e+000  4.0000e-001  1.9380e-003  2.2711e-001  1.8795e-001
 2.068636e-007  2.7436e-003  0.0000e+000  0.0000e+000  4.0000e-001  2.3148e-003  2.2738e-001  1.9588e-001
 2.108636e-007  1.0526e-003  0.0000e+000  0.0000e+000  4.0000e-001  2.0722e-003  2.2778e-001  2.1177e-001
 2.148636e-007  2.7400e-003  0.0000e+000  0.0000e+000  4.0000e-001  2.2789e-003  2.2789e-001  2.1996e-001
 2.188636e-007  1.5331e-003  0.0000e+000  0.0000e+000  4.0000e-001  2.1175e-003  2.2770e-001  2.2368e-001
 2.200000e-007  2.4155e-003  0.0000e+000  0.0000e+000  4.0000e-001  2.2321e-003  2.2764e-001  2.2444e-001
 2.205000e-007  2.2110e-003  0.0000e+000  2.0000e-001  4.0000e-001  5.1712e-002  2.3222e-001  2.2463e-001
 2.210000e-007  2.1594e-003  0.0000e+000  4.0000e-001  4.0000e-001  8.0918e-002  2.2753e-001  2.2481e-001
 2.212500e-007  2.1500e-003  0.0000e+000  4.0000e-001  4.0000e-001  9.1584e-002  2.0398e-001  2.2490e-001
 2.213750e-007  2.1478e-003  0.0000e+000  4.0000e-001  4.0000e-001  9.6069e-002  1.8644e-001  2.2495e-001
 2.224735e-007  2.1506e-003  0.0000e+000  4.0000e-001  4.0000e-001  1.2764e-001  4.1784e-002  2.2532e-001
 2.230228e-007  2.1578e-003  0.0000e+000  4.0000e-001  4.0000e-001  1.4180e-001  1.3543e-002  2.2549e-001
 2.249873e-007  2.1651e-003  0.0000e+000  4.0000e-001  4.0000e-001  1.8104e-001  3.2804e-003  2.2608e-001
 2.259696e-007  2.1674e-003  0.0000e+000  4.0000e-001  4.0000e-001  1.9037e-001  4.7155e-003  2.2635e-001
 2.299696e-007  2.1755e-003  0.0000e+000  4.0000e-001  4.0000e-001  2.1064e-001  6.5045e-003  2.2711e-001
 2.339696e-007  2.1848e-003  0.0000e+000  4.0000e-001  4.0000e-001  2.1914e-001  5.2874e-003  2.2738e-001
 2.379696e-007  2.1907e-003  0.0000e+000  4.0000e-001  4.0000e-001  2.2409e-001  6.8104e-003  2.2734e-001
 2.400000e-007  2.1924e-003  0.0000e+000  4.0000e-001  4.0000e-001  2.2512e-001  5.5660e-003  2.2727e-001
 2.405000e-007 -7.6851e-003  2.0000e-001  4.0000e-001  2.0000e-001  2.2080e-001 -6.3718e-003  2.2297e-001
 2.407500e-007 -6.8434e-003  3.0000e-001  4.0000e-001  1.0000e-001  2.1960e-001 -5.8482e-003  2.2172e-001
 2.410000e-007 -5.9576e-003  4.0000e-001  4.0000e-001  1.0603e-014  2.1840e-001 -5.1924e-003  2.2046e-001
 2.414751e-007 -2.2890e-003  4.0000e-001  4.0000e-001  0.0000e+000  2.1887e-001 -1.7470e-003  2.2081e-001
 2.417127e-007 -5.8016e-004  4.0000e-001  4.0000e-001  0.0000e+000  2.1903e-001 -1.3530e-004  2.2093e-001
 2.435177e-007  9.6413e-003  4.0000e-001  4.0000e-001  0.0000e+000  2.1962e-001  9.6085e-003  2.2112e-001
 2.444202e-007  1.2956e-002  4.0000e-001  4.0000e-001  0.0000e+000  2.1964e-001  1.2841e-002  2.2098e-001
 2.476919e-007  2.0676e-002  4.0000e-001  4.0000e-001  0.0000e+000  2.2008e-001  2.0460e-002  2.2095e-001
 2.493277e-007  2.2768e-002  4.0000e-001  4.0000e-001  0.0000e+000  2.2040e-001  2.2563e-002  2.2109e-001
 2.533277e-007  2.5970e-002  4.0000e-001  4.0000e-001  0.0000e+000  2.2111e-001  2.5791e-002  2.2149e-001
 2.573277e-007  2.7556e-002  4.0000e-001  4.0000e-001  0.0000e+000  2.2168e-001  2.7390e-002  2.2184e-001
 2.613277e-007  2.8393e-002  4.0000e-001  4.0000e-001  0.0000e+000  2.2207e-001  2.8225e-002  2.2211e-001
 2.653277e-007  2.8845e-002  4.0000e-001  4.0000e-001  0.0000e+000  2.2233e-001  2.8670e-002  2.2230e-001
 2.693277e-007  2.9088e-002  4.0000e-001  4.0000e-001  0.0000e+000  2.2251e-001  2.8906e-002  2.2243e-001
 2.733277e-007  2.9215e-002  4.0000e-001  4.0000e-001  0.0000e+000  2.2263e-001  2.9026e-002  2.2252e-001
 2.773277e-007  2.9277e-002  4.0000e-001  4.0000e-001  0.0000e+000  2.2271e-001  2.9083e-002  2.2258e-001
 2.800000e-007  2.9297e-002  4.0000e-001  4.0000e-001  1.0588e-014  2.2275e-001  2.9100e-002  2.2262e-001
 2.805000e-007  3.3084e-002  4.0000e-001  4.0000e-001  2.0000e-001  2.2568e-001  3.0538e-002  2.2361e-001
 2.810000e-007  7.3313e-002  4.0000e-001  4.0000e-001  4.0000e-001  2.2798e-001  2.1743e-002  1.3789e-001
 2.812500e-007  8.5662e-002  4.0000e-001  4.0000e-001  4.0000e-001  2.2753e-001  1.5988e-002  9.5747e-002
 2.813750e-007  9.1279e-002  4.0000e-001  4.0000e-001  4.0000e-001  2.2738e-001  1.3808e-002  7.7442e-002
 2.826250e-007  1.3922e-001  4.0000e-001  4.0000e-001  4.0000e-001  2.2717e-001  5.1259e-003  5.1891e-003
 2.832500e-007  1.5532e-001  4.0000e-001  4.0000e-001  4.0000e-001  2.2753e-001  6.0879e-003  5.8614e-003
 2.856589e-007  1.8908e-001  4.0000e-001  4.0000e-001  4.0000e-001  2.2806e-001  6.3388e-003  4.9366e-003
 2.868633e-007  1.9682e-001  4.0000e-001  4.0000e-001  4.0000e-001  2.2828e-001  6.2465e-003  5.8387e-003
 2.908633e-007  2.1291e-001  4.0000e-001  4.0000e-001  4.0000e-001  2.2885e-001  6.2391e-003  5.4727e-003
 2.948633e-007  2.2094e-001  4.0000e-001  4.0000e-001  4.0000e-001  2.2899e-001  6.2589e-003  6.3048e-003
 2.988633e-007  2.2482e-001  4.0000e-001  4.0000e-001  4.0000e-001  2.2886e-001  6.2603e-003  5.8564e-003
 3.000000e-007  2.2551e-001  4.0000e-001  4.0000e-001  4.0000e-001  2.2880e-001  6.2766e-003  6.3869e-003
 3.004999e-007  2.2571e-001  4.0000e-001  2.0000e-001  4.0000e-001  2.2721e-001  4.1541e-003  6.1862e-003
 3.010000e-007  2.2591e-001  4.0000e-001  0.0000e+000  4.0000e-001  7.8481e-002  4.7019e-002  6.1788e-003
 3.012500e-007  2.2601e-001  4.0000e-001  0.0000e+000  4.0000e-001  3.3887e-002  6.6925e-002  6.1829e-003
 3.013750e-007  2.2606e-001  4.0000e-001  0.0000e+000  4.0000e-001  2.0659e-002  7.6047e-002  6.1855e-003
 3.024735e-007  2.2647e-001  4.0000e-001  0.0000e+000  4.0000e-001 -5.8230e-003  1.3649e-001  6.2047e-003
 3.030228e-007  2.2666e-001  4.0000e-001  0.0000e+000  4.0000e-001  3.4952e-003  1.5086e-001  6.2108e-003
 3.050220e-007  2.2731e-001  4.0000e-001  0.0000e+000  4.0000e-001  2.7329e-004  1.7985e-001  6.2224e-003
 3.060216e-007  2.2760e-001  4.0000e-001  0.0000e+000  4.0000e-001  2.2629e-003  1.8830e-001  6.2246e-003
 3.100216e-007  2.2838e-001  4.0000e-001  0.0000e+000  4.0000e-001  1.3449e-003  2.0831e-001  6.2366e-003
 3.140216e-007  2.2864e-001  4.0000e-001  0.0000e+000  4.0000e-001  2.4253e-003  2.1788e-001  6.2534e-003
 3.180216e-007  2.2858e-001  4.0000e-001  0.0000e+000  4.0000e-001  1.7487e-003  2.2264e-001  6.2664e-003
 3.200000e-007  2.2850e-001  4.0000e-001  0.0000e+000  4.0000e-001  2.3647e-003  2.2398e-001  6.2703e-003
 3.205000e-007  2.2333e-001  2.0000e-001  0.0000e+000  2.0000e-001 -9.5350e-003  2.1959e-001 -9.7340e-003
 3.207499e-007  2.2207e-001  1.0000e-001  0.0000e+000  1.0000e-001 -8.7807e-003  2.1841e-001 -9.0281e-003
 3.210000e-007  2.2083e-001  0.0000e+000  0.0000e+000  0.0000e+000 -7.9068e-003  2.1724e-001 -8.0316e-003
 3.214751e-007  2.2120e-001  0.0000e+000  0.0000e+000  0.0000e+000 -4.1548e-003  2.1776e-001 -4.0460e-003
 3.217127e-007  2.2131e-001  0.0000e+000  0.0000e+000  0.0000e+000 -2.4032e-003  2.1795e-001 -2.1948e-003
 3.235177e-007  2.2145e-001  0.0000e+000  0.0000e+000  0.0000e+000  8.1690e-003  2.1870e-001  8.8232e-003
 3.244202e-007  2.2126e-001  0.0000e+000  0.0000e+000  0.0000e+000  1.1650e-002  2.1879e-001  1.2331e-002
 3.276919e-007  2.2111e-001  0.0000e+000  0.0000e+000  0.0000e+000  1.9844e-002  2.1945e-001  2.0428e-002
 3.293277e-007  2.2121e-001  0.0000e+000  0.0000e+000  0.0000e+000  2.2101e-002  2.1986e-001  2.2593e-002
