* T-Spice 13.00 Simulation	Fri Sep 06 19:03:46 2019	C:\Users\ARJUN\AppData\Local\Temp\TB_SRAM_6T.sp
* Command line: tspice -o C:\Users\ARJUN\AppData\Local\Temp\TB_SRAM_6T.out C:\Users\ARJUN\AppData\Local\Temp\TB_SRAM_6T.sp 
* T-Spice Win32 13.00.20080321.01:01:33

*SEDIT: Alter blocks = 0

* Accuracy and Convergence options:
* numndset|dchold = 100
* 
* Timestep and Integration options:
*  relq|relchgtol = 0.0005
* 
* Model Evaluation options:
*            dcap = 2                    defnrb = 0 [sq]               defnrd = 0 [sq]
*          defnrs = 0 [sq]                 tnom = 25 [deg C]
* 
* General options:
*            temp = 25 [deg C]          threads = 4
* 
* Output options:
*           acout = 1                    ingold = 0
* 


*  Device and node counts:
*             MOSFETs - 8                 MOSFET geometries - 4       
*                BJTs - 0                             JFETs - 0       
*             MESFETs - 0                            Diodes - 0       
*          Capacitors - 0                         Resistors - 0       
*           Inductors - 0                  Mutual inductors - 0       
*  Transmission lines - 0        Coupled transmission lines - 0       
*     Voltage sources - 3                   Current sources - 0       
*                VCVS - 0                              VCCS - 0       
*                CCVS - 0                              CCCS - 0       
*    V-control switch - 0                  I-control switch - 0       
*       Macro devices - 0        External C model instances - 0       
*         HDL devices - 0       
*         Subcircuits - 0              Subcircuit instances - 2       
*   Independent nodes - 35                   Boundary nodes - 4       
*         Total nodes - 39      


*SEDIT: Alter=0
*SEDIT: Analysis types DCOP 0 ACMODEL 0 AC 0 TRANSIENT 1 TRANSFER 0 NOISE 0 

*WEDIT: .tran   2e-009   3e-006
TRANSIENT ANALYSIS
Time<s>           v(WL)<V>     v(BL)<V>     v(QB)<V>      v(Q)<V>
 0.000000e+000  0.0000e+000  0.0000e+000  2.1667e-001  2.1676e-001
 1.250000e-010  0.0000e+000  0.0000e+000  2.1667e-001  2.1676e-001
 1.000000e-009  0.0000e+000  0.0000e+000  2.1667e-001  2.1676e-001
 1.500000e-009  0.0000e+000  0.0000e+000  2.1667e-001  2.1676e-001
 5.500000e-009  0.0000e+000  0.0000e+000  2.1667e-001  2.1676e-001
 9.500000e-009  0.0000e+000  0.0000e+000  2.1667e-001  2.1676e-001
 1.350000e-008  0.0000e+000  0.0000e+000  2.1667e-001  2.1676e-001
 1.750000e-008  0.0000e+000  0.0000e+000  2.1667e-001  2.1676e-001
 2.000000e-008  0.0000e+000  0.0000e+000  2.1667e-001  2.1676e-001
 2.050000e-008  2.0000e-001  0.0000e+000  2.2033e-001  2.1696e-001
 2.100000e-008  4.0000e-001  0.0000e+000  2.6686e-001  8.1279e-002
 2.125000e-008  4.0000e-001  0.0000e+000  3.0150e-001  4.4262e-002
 2.374999e-008  4.0000e-001  0.0000e+000  3.7724e-001  8.3823e-003
 2.499999e-008  4.0000e-001  0.0000e+000  3.8957e-001  4.6948e-003
 2.899999e-008  4.0000e-001  0.0000e+000  3.8809e-001  5.7784e-003
 3.299999e-008  4.0000e-001  0.0000e+000  3.8886e-001  4.9364e-003
 3.699999e-008  4.0000e-001  0.0000e+000  3.8850e-001  5.6045e-003
 4.000000e-008  4.0000e-001  0.0000e+000  3.8861e-001  5.0661e-003
 4.050000e-008  2.0000e-001  2.0000e-001  3.8771e-001  4.8579e-003
 4.075000e-008  1.0000e-001  3.0000e-001  3.8795e-001  6.7047e-003
 4.100000e-008  0.0000e+000  4.0000e-001  3.8790e-001  8.0070e-003
 4.147516e-008  0.0000e+000  4.0000e-001  3.8832e-001  9.2360e-003
 4.171274e-008  0.0000e+000  4.0000e-001  3.8837e-001  9.5589e-003
 4.397269e-008  0.0000e+000  4.0000e-001  3.8821e-001  1.0211e-002
 4.510266e-008  0.0000e+000  4.0000e-001  3.8815e-001  9.9329e-003
 4.910266e-008  0.0000e+000  4.0000e-001  3.8825e-001  1.0046e-002
 5.110266e-008  0.0000e+000  4.0000e-001  3.8818e-001  9.9623e-003
 5.510266e-008  0.0000e+000  4.0000e-001  3.8823e-001  1.0022e-002
 5.910266e-008  0.0000e+000  4.0000e-001  3.8819e-001  9.9738e-003
 6.000000e-008  0.0000e+000  4.0000e-001  3.8821e-001  1.0003e-002
 6.050000e-008  2.0000e-001  4.0000e-001  3.8874e-001  1.1047e-002
 6.100000e-008  4.0000e-001  4.0000e-001  3.6341e-001  3.6277e-002
 6.125000e-008  4.0000e-001  4.0000e-001  3.4845e-001  4.4788e-002
 6.375000e-008  4.0000e-001  4.0000e-001  4.6436e-002  3.2391e-001
 6.500000e-008  4.0000e-001  4.0000e-001  9.5009e-003  3.8508e-001
 6.562500e-008  4.0000e-001  4.0000e-001  8.5255e-003  3.8773e-001
 6.962500e-008  4.0000e-001  4.0000e-001  7.6121e-003  3.8915e-001
 7.362500e-008  4.0000e-001  4.0000e-001  8.2699e-003  3.8839e-001
 7.762500e-008  4.0000e-001  4.0000e-001  7.7587e-003  3.8877e-001
 8.000000e-008  4.0000e-001  4.0000e-001  8.1561e-003  3.8865e-001
 8.050000e-008  2.0000e-001  2.0000e-001  4.5883e-003  3.8701e-001
 8.100000e-008  0.0000e+000  0.0000e+000  7.2874e-003  3.8740e-001
 8.150000e-008  0.0000e+000  0.0000e+000  9.0297e-003  3.8818e-001
 8.175000e-008  0.0000e+000  0.0000e+000  9.4684e-003  3.8831e-001
 8.425000e-008  0.0000e+000  0.0000e+000  1.0288e-002  3.8825e-001
 8.825000e-008  0.0000e+000  0.0000e+000  9.7817e-003  3.8814e-001
 9.225000e-008  0.0000e+000  0.0000e+000  1.0155e-002  3.8828e-001
 9.625000e-008  0.0000e+000  0.0000e+000  9.8731e-003  3.8814e-001
 1.000000e-007  0.0000e+000  0.0000e+000  1.0088e-002  3.8826e-001
 1.005000e-007  2.0000e-001  0.0000e+000  1.1070e-002  3.8871e-001
 1.010000e-007  4.0000e-001  0.0000e+000  4.0556e-002  3.2400e-001
 1.012500e-007  4.0000e-001  0.0000e+000  5.5387e-002  2.7358e-001
 1.034812e-007  4.0000e-001  0.0000e+000  3.3304e-001  2.3569e-002
 1.045968e-007  4.0000e-001  0.0000e+000  3.8777e-001  3.1668e-003
 1.051547e-007  4.0000e-001  0.0000e+000  3.8919e-001  5.9731e-003
 1.091547e-007  4.0000e-001  0.0000e+000  3.8813e-001  4.7051e-003
 1.131547e-007  4.0000e-001  0.0000e+000  3.8900e-001  5.8331e-003
 1.171547e-007  4.0000e-001  0.0000e+000  3.8827e-001  4.8340e-003
 1.200000e-007  4.0000e-001  0.0000e+000  3.8887e-001  5.6894e-003
 1.205000e-007  2.0000e-001  0.0000e+000  3.8764e-001  4.5713e-003
 1.210000e-007  0.0000e+000  0.0000e+000  3.8770e-001  7.2520e-003
 1.215000e-007  0.0000e+000  0.0000e+000  3.8833e-001  8.9827e-003
 1.255000e-007  0.0000e+000  0.0000e+000  3.8827e-001  9.9000e-003
 1.295000e-007  0.0000e+000  0.0000e+000  3.8819e-001  1.0043e-002
 1.335000e-007  0.0000e+000  0.0000e+000  3.8822e-001  9.9524e-003
 1.375000e-007  0.0000e+000  0.0000e+000  3.8821e-001  1.0014e-002
 1.399999e-007  0.0000e+000  0.0000e+000  3.8821e-001  9.9742e-003
 1.405000e-007  0.0000e+000  2.0000e-001  3.8821e-001  9.9872e-003
 1.409999e-007  0.0000e+000  4.0000e-001  3.8821e-001  9.9916e-003
 1.412499e-007  0.0000e+000  4.0000e-001  3.8821e-001  9.9926e-003
 1.413749e-007  0.0000e+000  4.0000e-001  3.8821e-001  9.9929e-003
 1.426249e-007  0.0000e+000  4.0000e-001  3.8820e-001  9.9946e-003
 1.432499e-007  0.0000e+000  4.0000e-001  3.8820e-001  9.9953e-003
 1.464506e-007  0.0000e+000  4.0000e-001  3.8821e-001  9.9954e-003
 1.480510e-007  0.0000e+000  4.0000e-001  3.8820e-001  9.9951e-003
 1.520510e-007  0.0000e+000  4.0000e-001  3.8821e-001  9.9954e-003
 1.560510e-007  0.0000e+000  4.0000e-001  3.8820e-001  9.9951e-003
 1.600510e-007  0.0000e+000  4.0000e-001  3.8820e-001  9.9954e-003
 1.640510e-007  0.0000e+000  4.0000e-001  3.8820e-001  9.9952e-003
 1.680510e-007  0.0000e+000  4.0000e-001  3.8820e-001  9.9954e-003
 1.720510e-007  0.0000e+000  4.0000e-001  3.8820e-001  9.9952e-003
 1.760510e-007  0.0000e+000  4.0000e-001  3.8820e-001  9.9954e-003
 1.800000e-007  0.0000e+000  4.0000e-001  3.8820e-001  9.9952e-003
 1.805000e-007  2.0000e-001  4.0000e-001  3.8875e-001  1.1046e-002
 1.810000e-007  4.0000e-001  4.0000e-001  3.6351e-001  3.6264e-002
 1.812500e-007  4.0000e-001  4.0000e-001  3.4855e-001  4.4761e-002
 1.837499e-007  4.0000e-001  4.0000e-001  4.6463e-002  3.2387e-001
 1.849999e-007  4.0000e-001  4.0000e-001  9.5046e-003  3.8507e-001
 1.856249e-007  4.0000e-001  4.0000e-001  8.5264e-003  3.8773e-001
 1.896249e-007  4.0000e-001  4.0000e-001  7.6117e-003  3.8915e-001
 1.936249e-007  4.0000e-001  4.0000e-001  8.2702e-003  3.8839e-001
 1.976249e-007  4.0000e-001  4.0000e-001  7.7585e-003  3.8877e-001
 1.999999e-007  4.0000e-001  4.0000e-001  8.1562e-003  3.8865e-001
 2.005000e-007  2.0000e-001  2.0000e-001  4.5883e-003  3.8701e-001
 2.009999e-007  1.0603e-014  0.0000e+000  7.2874e-003  3.8740e-001
 2.015000e-007  0.0000e+000  0.0000e+000  9.0297e-003  3.8818e-001
 2.017500e-007  0.0000e+000  0.0000e+000  9.4685e-003  3.8831e-001
 2.042500e-007  0.0000e+000  0.0000e+000  1.0288e-002  3.8825e-001
 2.082500e-007  0.0000e+000  0.0000e+000  9.7817e-003  3.8814e-001
 2.122500e-007  0.0000e+000  0.0000e+000  1.0155e-002  3.8828e-001
 2.162500e-007  0.0000e+000  0.0000e+000  9.8731e-003  3.8814e-001
 2.200000e-007  0.0000e+000  0.0000e+000  1.0088e-002  3.8826e-001
 2.205000e-007  2.0000e-001  0.0000e+000  1.1070e-002  3.8871e-001
 2.210000e-007  4.0000e-001  0.0000e+000  4.0556e-002  3.2400e-001
 2.212500e-007  4.0000e-001  0.0000e+000  5.5387e-002  2.7358e-001
 2.234812e-007  4.0000e-001  0.0000e+000  3.3304e-001  2.3569e-002
 2.245968e-007  4.0000e-001  0.0000e+000  3.8777e-001  3.1668e-003
 2.251547e-007  4.0000e-001  0.0000e+000  3.8919e-001  5.9731e-003
 2.291547e-007  4.0000e-001  0.0000e+000  3.8813e-001  4.7051e-003
 2.331547e-007  4.0000e-001  0.0000e+000  3.8900e-001  5.8331e-003
 2.371547e-007  4.0000e-001  0.0000e+000  3.8827e-001  4.8340e-003
 2.399999e-007  4.0000e-001  0.0000e+000  3.8887e-001  5.6894e-003
 2.404999e-007  2.0000e-001  2.0000e-001  3.8776e-001  5.0983e-003
 2.407499e-007  1.0000e-001  3.0000e-001  3.8795e-001  6.8320e-003
 2.410000e-007  1.5876e-014  4.0000e-001  3.8787e-001  8.0583e-003
 2.414751e-007  0.0000e+000  4.0000e-001  3.8830e-001  9.2594e-003
 2.417127e-007  0.0000e+000  4.0000e-001  3.8835e-001  9.5741e-003
 2.439726e-007  0.0000e+000  4.0000e-001  3.8822e-001  1.0205e-002
 2.451025e-007  0.0000e+000  4.0000e-001  3.8815e-001  9.9337e-003
 2.491025e-007  0.0000e+000  4.0000e-001  3.8825e-001  1.0045e-002
 2.511025e-007  0.0000e+000  4.0000e-001  3.8818e-001  9.9628e-003
 2.551025e-007  0.0000e+000  4.0000e-001  3.8823e-001  1.0022e-002
 2.591025e-007  0.0000e+000  4.0000e-001  3.8819e-001  9.9741e-003
 2.600000e-007  2.6470e-015  4.0000e-001  3.8821e-001  1.0003e-002
 2.605000e-007  2.0000e-001  4.0000e-001  3.8874e-001  1.1047e-002
 2.610000e-007  4.0000e-001  4.0000e-001  3.6341e-001  3.6277e-002
 2.612500e-007  4.0000e-001  4.0000e-001  3.4845e-001  4.4788e-002
 2.637500e-007  4.0000e-001  4.0000e-001  4.6436e-002  3.2391e-001
 2.650000e-007  4.0000e-001  4.0000e-001  9.5009e-003  3.8508e-001
 2.656250e-007  4.0000e-001  4.0000e-001  8.5255e-003  3.8773e-001
 2.696250e-007  4.0000e-001  4.0000e-001  7.6121e-003  3.8915e-001
 2.736250e-007  4.0000e-001  4.0000e-001  8.2699e-003  3.8839e-001
 2.776250e-007  4.0000e-001  4.0000e-001  7.7587e-003  3.8877e-001
 2.800000e-007  4.0000e-001  4.0000e-001  8.1561e-003  3.8865e-001
 2.805000e-007  2.0000e-001  2.0000e-001  4.5883e-003  3.8701e-001
 2.810000e-007  0.0000e+000  0.0000e+000  7.2874e-003  3.8740e-001
 2.815000e-007  0.0000e+000  0.0000e+000  9.0297e-003  3.8818e-001
 2.817500e-007  0.0000e+000  0.0000e+000  9.4684e-003  3.8831e-001
 2.842500e-007  0.0000e+000  0.0000e+000  1.0288e-002  3.8825e-001
 2.882500e-007  0.0000e+000  0.0000e+000  9.7817e-003  3.8814e-001
 2.922500e-007  0.0000e+000  0.0000e+000  1.0155e-002  3.8828e-001
 2.962499e-007  0.0000e+000  0.0000e+000  9.8731e-003  3.8814e-001
 3.000000e-007  0.0000e+000  0.0000e+000  1.0088e-002  3.8826e-001
 3.005000e-007  2.0000e-001  0.0000e+000  1.1070e-002  3.8871e-001
 3.010000e-007  4.0000e-001  0.0000e+000  4.0556e-002  3.2400e-001
 3.012500e-007  4.0000e-001  0.0000e+000  5.5387e-002  2.7358e-001
 3.034812e-007  4.0000e-001  0.0000e+000  3.3304e-001  2.3569e-002
 3.045968e-007  4.0000e-001  0.0000e+000  3.8777e-001  3.1668e-003
 3.051547e-007  4.0000e-001  0.0000e+000  3.8919e-001  5.9731e-003
 3.091547e-007  4.0000e-001  0.0000e+000  3.8813e-001  4.7051e-003
 3.131547e-007  4.0000e-001  0.0000e+000  3.8900e-001  5.8331e-003
 3.171547e-007  4.0000e-001  0.0000e+000  3.8827e-001  4.8340e-003
 3.200000e-007  4.0000e-001  0.0000e+000  3.8887e-001  5.6894e-003
 3.205000e-007  2.0000e-001  0.0000e+000  3.8764e-001  4.5713e-003
 3.210000e-007  0.0000e+000  0.0000e+000  3.8770e-001  7.2520e-003
 3.215000e-007  0.0000e+000  0.0000e+000  3.8833e-001  8.9827e-003
 3.255000e-007  0.0000e+000  0.0000e+000  3.8827e-001  9.9000e-003
 3.295000e-007  0.0000e+000  0.0000e+000  3.8819e-001  1.0043e-002
 3.335000e-007  0.0000e+000  0.0000e+000  3.8822e-001  9.9524e-003
 3.375000e-007  0.0000e+000  0.0000e+000  3.8821e-001  1.0014e-002
 3.400000e-007  0.0000e+000  1.0588e-014  3.8821e-001  9.9742e-003
 3.405000e-007  0.0000e+000  2.0000e-001  3.8821e-001  9.9872e-003
 3.410000e-007  0.0000e+000  4.0000e-001  3.8821e-001  9.9916e-003
 3.412500e-007  0.0000e+000  4.0000e-001  3.8821e-001  9.9926e-003
 3.413750e-007  0.0000e+000  4.0000e-001  3.8821e-001  9.9929e-003
 3.426249e-007  0.0000e+000  4.0000e-001  3.8820e-001  9.9946e-003
 3.432499e-007  0.0000e+000  4.0000e-001  3.8820e-001  9.9953e-003
 3.464506e-007  0.0000e+000  4.0000e-001  3.8821e-001  9.9954e-003
 3.480510e-007  0.0000e+000  4.0000e-001  3.8820e-001  9.9951e-003
 3.520510e-007  0.0000e+000  4.0000e-001  3.8821e-001  9.9954e-003
 3.560510e-007  0.0000e+000  4.0000e-001  3.8820e-001  9.9951e-003
 3.600510e-007  0.0000e+000  4.0000e-001  3.8820e-001  9.9954e-003
 3.640510e-007  0.0000e+000  4.0000e-001  3.8820e-001  9.9952e-003
 3.680510e-007  0.0000e+000  4.0000e-001  3.8820e-001  9.9954e-003
 3.720510e-007  0.0000e+000  4.0000e-001  3.8820e-001  9.9952e-003
 3.760510e-007  0.0000e+000  4.0000e-001  3.8820e-001  9.9954e-003
 3.800000e-007  0.0000e+000  4.0000e-001  3.8820e-001  9.9952e-003
 3.805000e-007  2.0000e-001  4.0000e-001  3.8875e-001  1.1046e-002
 3.810000e-007  4.0000e-001  4.0000e-001  3.6351e-001  3.6264e-002
 3.812500e-007  4.0000e-001  4.0000e-001  3.4855e-001  4.4761e-002
 3.837500e-007  4.0000e-001  4.0000e-001  4.6463e-002  3.2387e-001
 3.850000e-007  4.0000e-001  4.0000e-001  9.5046e-003  3.8507e-001
 3.856250e-007  4.0000e-001  4.0000e-001  8.5264e-003  3.8773e-001
 3.896250e-007  4.0000e-001  4.0000e-001  7.6117e-003  3.8915e-001
 3.936250e-007  4.0000e-001  4.0000e-001  8.2702e-003  3.8839e-001
 3.976250e-007  4.0000e-001  4.0000e-001  7.7585e-003  3.8877e-001
 3.999999e-007  4.0000e-001  4.0000e-001  8.1562e-003  3.8865e-001
 4.004999e-007  2.0000e-001  2.0000e-001  4.5883e-003  3.8701e-001
 4.010000e-007  2.1205e-014  0.0000e+000  7.2874e-003  3.8740e-001
 4.014999e-007  0.0000e+000  0.0000e+000  9.0297e-003  3.8818e-001
 4.017500e-007  0.0000e+000  0.0000e+000  9.4685e-003  3.8831e-001
 4.042499e-007  0.0000e+000  0.0000e+000  1.0288e-002  3.8825e-001
 4.082499e-007  0.0000e+000  0.0000e+000  9.7817e-003  3.8814e-001
 4.122499e-007  0.0000e+000  0.0000e+000  1.0155e-002  3.8828e-001
 4.162499e-007  0.0000e+000  0.0000e+000  9.8731e-003  3.8814e-001
 4.200000e-007  0.0000e+000  0.0000e+000  1.0088e-002  3.8826e-001
 4.205000e-007  2.0000e-001  0.0000e+000  1.1070e-002  3.8871e-001
 4.210000e-007  4.0000e-001  0.0000e+000  4.0556e-002  3.2400e-001
 4.212500e-007  4.0000e-001  0.0000e+000  5.5387e-002  2.7358e-001
 4.234812e-007  4.0000e-001  0.0000e+000  3.3304e-001  2.3569e-002
 4.245968e-007  4.0000e-001  0.0000e+000  3.8777e-001  3.1668e-003
 4.251547e-007  4.0000e-001  0.0000e+000  3.8919e-001  5.9731e-003
 4.291547e-007  4.0000e-001  0.0000e+000  3.8813e-001  4.7051e-003
 4.331547e-007  4.0000e-001  0.0000e+000  3.8900e-001  5.8331e-003
 4.371547e-007  4.0000e-001  0.0000e+000  3.8827e-001  4.8340e-003
 4.400000e-007  4.0000e-001  7.9409e-015  3.8887e-001  5.6894e-003
 4.405000e-007  2.0000e-001  2.0000e-001  3.8776e-001  5.0983e-003
 4.407500e-007  1.0000e-001  3.0000e-001  3.8795e-001  6.8320e-003
 4.410000e-007  2.6479e-014  4.0000e-001  3.8787e-001  8.0583e-003
 4.414751e-007  0.0000e+000  4.0000e-001  3.8830e-001  9.2594e-003
 4.417127e-007  0.0000e+000  4.0000e-001  3.8835e-001  9.5741e-003
 4.439726e-007  0.0000e+000  4.0000e-001  3.8822e-001  1.0205e-002
 4.451025e-007  0.0000e+000  4.0000e-001  3.8815e-001  9.9337e-003
 4.491025e-007  0.0000e+000  4.0000e-001  3.8825e-001  1.0045e-002
 4.511025e-007  0.0000e+000  4.0000e-001  3.8818e-001  9.9628e-003
 4.551025e-007  0.0000e+000  4.0000e-001  3.8823e-001  1.0022e-002
 4.591025e-007  0.0000e+000  4.0000e-001  3.8819e-001  9.9741e-003
 4.600000e-007  0.0000e+000  4.0000e-001  3.8821e-001  1.0003e-002
 4.605000e-007  2.0000e-001  4.0000e-001  3.8874e-001  1.1047e-002
 4.610000e-007  4.0000e-001  4.0000e-001  3.6341e-001  3.6277e-002
 4.612500e-007  4.0000e-001  4.0000e-001  3.4845e-001  4.4788e-002
 4.637500e-007  4.0000e-001  4.0000e-001  4.6436e-002  3.2391e-001
 4.650000e-007  4.0000e-001  4.0000e-001  9.5009e-003  3.8508e-001
 4.656250e-007  4.0000e-001  4.0000e-001  8.5255e-003  3.8773e-001
 4.696250e-007  4.0000e-001  4.0000e-001  7.6121e-003  3.8915e-001
 4.736250e-007  4.0000e-001  4.0000e-001  8.2699e-003  3.8839e-001
 4.776250e-007  4.0000e-001  4.0000e-001  7.7587e-003  3.8877e-001
 4.800000e-007  4.0000e-001  4.0000e-001  8.1561e-003  3.8865e-001
 4.805000e-007  2.0000e-001  2.0000e-001  4.5883e-003  3.8701e-001
 4.809999e-007  3.1752e-014  1.0603e-014  7.2874e-003  3.8740e-001
 4.814999e-007  0.0000e+000  0.0000e+000  9.0297e-003  3.8818e-001
 4.817500e-007  0.0000e+000  0.0000e+000  9.4684e-003  3.8831e-001
 4.842500e-007  0.0000e+000  0.0000e+000  1.0288e-002  3.8825e-001
 4.882500e-007  0.0000e+000  0.0000e+000  9.7817e-003  3.8814e-001
 4.922500e-007  0.0000e+000  0.0000e+000  1.0155e-002  3.8828e-001
 4.962500e-007  0.0000e+000  0.0000e+000  9.8731e-003  3.8814e-001
 5.000000e-007  0.0000e+000  0.0000e+000  1.0088e-002  3.8826e-001
 5.005000e-007  2.0000e-001  0.0000e+000  1.1070e-002  3.8871e-001
 5.010000e-007  4.0000e-001  0.0000e+000  4.0556e-002  3.2400e-001
 5.012500e-007  4.0000e-001  0.0000e+000  5.5387e-002  2.7358e-001
 5.034812e-007  4.0000e-001  0.0000e+000  3.3304e-001  2.3569e-002
 5.045968e-007  4.0000e-001  0.0000e+000  3.8777e-001  3.1668e-003
 5.051547e-007  4.0000e-001  0.0000e+000  3.8919e-001  5.9731e-003
 5.091547e-007  4.0000e-001  0.0000e+000  3.8813e-001  4.7051e-003
 5.131547e-007  4.0000e-001  0.0000e+000  3.8900e-001  5.8331e-003
 5.171547e-007  4.0000e-001  0.0000e+000  3.8827e-001  4.8340e-003
 5.200000e-007  4.0000e-001  0.0000e+000  3.8887e-001  5.6894e-003
 5.205000e-007  2.0000e-001  0.0000e+000  3.8764e-001  4.5713e-003
 5.209999e-007  2.1205e-014  0.0000e+000  3.8770e-001  7.2520e-003
 5.215000e-007  0.0000e+000  0.0000e+000  3.8833e-001  8.9827e-003
 5.255000e-007  0.0000e+000  0.0000e+000  3.8827e-001  9.9000e-003
 5.295000e-007  0.0000e+000  0.0000e+000  3.8819e-001  1.0043e-002
 5.334999e-007  0.0000e+000  0.0000e+000  3.8822e-001  9.9524e-003
 5.374999e-007  0.0000e+000  0.0000e+000  3.8821e-001  1.0014e-002
 5.399999e-007  0.0000e+000  0.0000e+000  3.8821e-001  9.9742e-003
 5.404999e-007  0.0000e+000  2.0000e-001  3.8821e-001  9.9872e-003
 5.410000e-007  0.0000e+000  4.0000e-001  3.8821e-001  9.9916e-003
 5.412500e-007  0.0000e+000  4.0000e-001  3.8821e-001  9.9926e-003
 5.413749e-007  0.0000e+000  4.0000e-001  3.8821e-001  9.9929e-003
 5.426249e-007  0.0000e+000  4.0000e-001  3.8820e-001  9.9946e-003
 5.432499e-007  0.0000e+000  4.0000e-001  3.8820e-001  9.9953e-003
 5.464506e-007  0.0000e+000  4.0000e-001  3.8821e-001  9.9954e-003
 5.480510e-007  0.0000e+000  4.0000e-001  3.8820e-001  9.9951e-003
 5.520510e-007  0.0000e+000  4.0000e-001  3.8821e-001  9.9954e-003
 5.560510e-007  0.0000e+000  4.0000e-001  3.8820e-001  9.9951e-003
 5.600510e-007  0.0000e+000  4.0000e-001  3.8820e-001  9.9954e-003
 5.640510e-007  0.0000e+000  4.0000e-001  3.8820e-001  9.9952e-003
 5.680510e-007  0.0000e+000  4.0000e-001  3.8820e-001  9.9954e-003
 5.720510e-007  0.0000e+000  4.0000e-001  3.8820e-001  9.9952e-003
